
T0D48 000:551 SEGGER J-Link V4.90 Log File (0017ms, 0284ms total)
T0D48 000:551 DLL Compiled: Jul 28 2014 10:35:20 (0017ms, 0284ms total)
T0D48 000:551 Logging started @ 2018-12-28 17:01 (0017ms, 0284ms total)
T0D48 000:568 JLINK_SetWarnOutHandler(...) (0000ms, 0284ms total)
T0D48 000:568 JLINK_OpenEx(...)
Firmware: J-Link V9 compiled Sep  1 2016 18:29:50
Hardware: V9.40
S/N: 59425868
Feature(s): RDI, GDB, FlashDL, FlashBP, JFlash, RDDI  returns O.K. (0266ms, 0550ms total)
T0D48 000:834 JLINK_SetErrorOutHandler(...) (0000ms, 0550ms total)
T0D48 000:834 JLINK_ExecCommand("ProjectFile = "E:\交互式试验箱相关\rtthread\honeycomb\bsp\stm32f4xx-HAL-bootloader\JLinkSettings.ini"", ...)Device "UNSPECIFIED" selected (0 KB flash, 0 KB RAM).  returns 0x00 (0015ms, 0565ms total)
T0D48 000:854 JLINK_ExecCommand("Device = STM32F407ZGTx", ...)Device "UNSPECIFIED" selected (0 KB flash, 0 KB RAM).  returns 0x00 (0002ms, 0568ms total)
T0D48 000:857 JLINK_ExecCommand("DisableConnectionTimeout", ...)  returns 0x01 (0000ms, 0568ms total)
T0D48 000:857 JLINK_GetHardwareVersion()  returns 0x16F30 (0000ms, 0568ms total)
T0D48 000:857 JLINK_GetDLLVersion()  returns 49000 (0000ms, 0568ms total)
T0D48 000:857 JLINK_GetFirmwareString(...) (0000ms, 0568ms total)
T0D48 000:865 JLINK_GetDLLVersion()  returns 49000 (0000ms, 0568ms total)
T0D48 000:865 JLINK_GetCompileDateTime() (0000ms, 0568ms total)
T0D48 000:867 JLINK_GetFirmwareString(...) (0000ms, 0568ms total)
T0D48 000:879 JLINK_GetHardwareVersion()  returns 0x16F30 (0000ms, 0568ms total)
T0D48 000:887 JLINK_TIF_Select(JLINKARM_TIF_SWD)  returns 0x00 (0002ms, 0570ms total)
T0D48 000:889 JLINK_SetSpeed(2000) (0000ms, 0570ms total)
T0D48 000:889 JLINK_GetId() >0x108 TIF>Found SWD-DP with ID 0x2BA01477 >0x0D TIF> >0x21 TIF> >0x0D TIF> >0x28 TIF> >0x0D TIF> >0x28 TIF> >0x0D TIF> >0x21 TIF> >0x0D TIF> >0x28 TIF> >0x0D TIF> >0x21 TIF> >0x0D TIF> >0x21 TIF> >0x0D TIF> >0x21 TIF> >0x0D TIF> >0x21 TIF> >0x0D TIF> >0x28 TIF> >0x0D TIF> >0x28 TIF> >0x0D TIF> >0x21 TIF> >0x0D TIF> >0x28 TIF> >0x0D TIF> >0x28 TIF> >0x0D TIF> >0x28 TIF> >0x0D TIF> >0x21 TIF> >0x0D TIF> >0x21 TIF> >0x0D TIF> >0x28 TIF> >0x0D TIF> >0x21 TIF> >0x0D TIF>
 >0x21 TIF>Found Cortex-M4 r0p1, Little endian. -- CPU_WriteMem(4 bytes @ 0xE0002000) -- CPU_ReadMem(4 bytes @ 0xE000EDF0) -- CPU_ReadMem(4 bytes @ 0xE0002000)FPUnit: 6 code (BP) slots and 2 literal slots -- CPU_ReadMem(4 bytes @ 0xE000EDFC) -- CPU_ReadMem(4 bytes @ 0xE0001000) -- CPU_WriteMem(4 bytes @ 0xE0001000) -- CPU_ReadMem(4 bytes @ 0xE00FF010)TPIU fitted. -- CPU_ReadMem(4 bytes @ 0xE00FF014)ETM fitted. -- CPU_ReadMem(4 bytes @ 0xE00FF018) >0x0D TIF> >0x21 TIF>  returns 0x2BA01477
 (0039ms, 0609ms total)
T0D48 000:928 JLINK_GetDLLVersion()  returns 49000 (0000ms, 0609ms total)
T0D48 000:928 JLINK_CORE_GetFound()  returns 0xE0000FF (0000ms, 0609ms total)
T0D48 000:929 JLINK_GetDebugInfo(0x100) -- Value=0xE00FF003  returns 0x00 (0000ms, 0609ms total)
T0D48 000:929 JLINK_GetDebugInfo(0x101)  returns 0xFFFFFFFF (0000ms, 0609ms total)
T0D48 000:929 JLINK_ReadMem (0xE0041FF0, 0x0010 Bytes, ...) -- CPU is running -- CPU_ReadMem(16 bytes @ 0xE0041FF0) - Data: 0D 00 00 00 90 00 00 00 05 00 00 00 B1 00 00 00  returns 0x00 (0001ms, 0610ms total)
T0D48 000:930 JLINK_GetDebugInfo(0x102)  returns 0xFFFFFFFF (0000ms, 0610ms total)
T0D48 000:930 JLINK_GetDebugInfo(0x103)  returns 0xFFFFFFFF (0000ms, 0610ms total)
T0D48 000:930 JLINK_ReadMem (0xE0040FF0, 0x0010 Bytes, ...) -- CPU is running -- CPU_ReadMem(16 bytes @ 0xE0040FF0) - Data: 0D 00 00 00 90 00 00 00 05 00 00 00 B1 00 00 00  returns 0x00 (0001ms, 0611ms total)
T0D48 000:931 JLINK_GetDebugInfo(0x104)  returns 0xFFFFFFFF (0000ms, 0611ms total)
T0D48 000:931 JLINK_GetDebugInfo(0x105)  returns 0xFFFFFFFF (0000ms, 0611ms total)
T0D48 000:931 JLINK_GetDebugInfo(0x106)  returns 0xFFFFFFFF (0000ms, 0611ms total)
T0D48 000:931 JLINK_GetDebugInfo(0x107)  returns 0xFFFFFFFF (0000ms, 0611ms total)
T0D48 000:931 JLINK_GetDebugInfo(0x10C)  returns 0xFFFFFFFF (0000ms, 0611ms total)
T0D48 000:931 JLINK_ReadMemU32(0xE000EF40, 0x0001 Items, ...) -- CPU is running -- CPU_ReadMem(4 bytes @ 0xE000EF40) - Data: 21 00 11 10  returns 0x01 (0001ms, 0612ms total)
T0D48 000:932 JLINK_ReadMemU32(0xE000EF44, 0x0001 Items, ...) -- CPU is running -- CPU_ReadMem(4 bytes @ 0xE000EF44) - Data: 11 00 00 11  returns 0x01 (0001ms, 0613ms total)
T0D48 000:933 JLINK_ReadMemU32(0xE000ED00, 0x0001 Items, ...) -- CPU is running -- CPU_ReadMem(4 bytes @ 0xE000ED00) - Data: 41 C2 0F 41  returns 0x01 (0000ms, 0613ms total)
T0D48 000:933 JLINK_SetResetType(JLINKARM_RESET_TYPE_NORMAL)  returns JLINKARM_RESET_TYPE_NORMAL (0000ms, 0613ms total)
T0D48 000:933 JLINK_Reset() -- CPU is running -- CPU_WriteMem(4 bytes @ 0xE000EDF0) -- CPU is running -- CPU_WriteMem(4 bytes @ 0xE000EDFC) >0x35 TIF> -- CPU is running -- CPU_WriteMem(4 bytes @ 0xE000ED0C) -- CPU is running -- CPU_ReadMem(4 bytes @ 0xE000EDF0) -- CPU is running -- CPU_ReadMem(4 bytes @ 0xE000EDF0) -- CPU is running -- CPU_WriteMem(4 bytes @ 0xE000EDF0) -- CPU is running -- CPU_WriteMem(4 bytes @ 0xE000EDFC) -- CPU is running -- CPU_ReadMem(4 bytes @ 0xE000EDF0)
 -- CPU_WriteMem(4 bytes @ 0xE0002000) -- CPU_ReadMem(4 bytes @ 0xE000EDFC) -- CPU_ReadMem(4 bytes @ 0xE0001000) (0022ms, 0635ms total)
T0D48 000:955 JLINK_Halt()  returns 0x00 (0000ms, 0635ms total)
T0D48 000:955 JLINK_IsHalted()  returns TRUE (0000ms, 0635ms total)
T0D48 000:955 JLINK_ReadMemU32(0xE000EDF0, 0x0001 Items, ...) -- CPU_ReadMem(4 bytes @ 0xE000EDF0) - Data: 03 00 03 00  returns 0x01 (0000ms, 0635ms total)
T0D48 000:955 JLINK_WriteU32(0xE000EDF0, 0xA05F0003) -- CPU_WriteMem(4 bytes @ 0xE000EDF0)  returns 0x00 (0001ms, 0636ms total)
T0D48 000:956 JLINK_WriteU32(0xE000EDFC, 0x01000000) -- CPU_WriteMem(4 bytes @ 0xE000EDFC)  returns 0x00 (0000ms, 0636ms total)
T0D48 000:967 JLINK_GetHWStatus(...)  returns 0x00 (0001ms, 0637ms total)
T0D48 000:973 JLINK_GetNumBPUnits(Type = 0xFFFFFF00)  returns 0x06 (0000ms, 0637ms total)
T0D48 000:973 JLINK_GetNumBPUnits(Type = 0xF0)  returns 0x2000 (0000ms, 0637ms total)
T0D48 000:973 JLINK_GetNumWPUnits()  returns 0x04 (0000ms, 0637ms total)
T0D48 000:979 JLINK_GetSpeed()  returns 0x7D0 (0000ms, 0637ms total)
T0D48 000:984 JLINK_ReadMemU32(0xE000E004, 0x0001 Items, ...) -- CPU_ReadMem(4 bytes @ 0xE000E004) - Data: 02 00 00 00  returns 0x01 (0001ms, 0638ms total)
T0D48 000:985 JLINK_ReadMemU32(0xE000E004, 0x0001 Items, ...) -- CPU_ReadMem(4 bytes @ 0xE000E004) - Data: 02 00 00 00  returns 0x01 (0001ms, 0639ms total)
T0D48 000:986 JLINK_WriteMem(0xE0001000, 0x001C Bytes, ...) - Data: 01 00 00 00 00 00 00 00 00 00 00 00 00 00 00 00 ... -- CPU_WriteMem(28 bytes @ 0xE0001000)  returns 0x1C (0000ms, 0639ms total)
T0D48 000:986 JLINK_ReadMem (0xE0001000, 0x001C Bytes, ...) -- CPU_ReadMem(28 bytes @ 0xE0001000) - Data: 01 00 00 40 00 00 00 00 00 00 00 00 00 00 00 00 ...  returns 0x00 (0001ms, 0640ms total)
T0D48 000:987 JLINK_Halt()  returns 0x00 (0000ms, 0640ms total)
T0D48 000:987 JLINK_IsHalted()  returns TRUE (0000ms, 0640ms total)
T0D48 001:022 JLINK_WriteMem(0x20000000, 0x0180 Bytes, ...) - Data: 00 BE 0A E0 0D 78 2D 06 68 40 08 24 40 00 00 D3 ... -- CPU_WriteMem(384 bytes @ 0x20000000)  returns 0x180 (0003ms, 0643ms total)
T0D48 001:025 JLINK_WriteReg(R0, 0x08000000)  returns 0x00 (0000ms, 0643ms total)
T0D48 001:025 JLINK_WriteReg(R1, 0x007A1200)  returns 0x00 (0000ms, 0643ms total)
T0D48 001:025 JLINK_WriteReg(R2, 0x00000001)  returns 0x00 (0000ms, 0643ms total)
T0D48 001:025 JLINK_WriteReg(R3, 0x00000000)  returns 0x00 (0000ms, 0643ms total)
T0D48 001:025 JLINK_WriteReg(R4, 0x00000000)  returns 0x00 (0000ms, 0643ms total)
T0D48 001:025 JLINK_WriteReg(R5, 0x00000000)  returns 0x00 (0000ms, 0643ms total)
T0D48 001:025 JLINK_WriteReg(R6, 0x00000000)  returns 0x00 (0000ms, 0643ms total)
T0D48 001:025 JLINK_WriteReg(R7, 0x00000000)  returns 0x00 (0000ms, 0643ms total)
T0D48 001:025 JLINK_WriteReg(R8, 0x00000000)  returns 0x00 (0000ms, 0643ms total)
T0D48 001:025 JLINK_WriteReg(R9, 0x2000017C)  returns 0x00 (0000ms, 0643ms total)
T0D48 001:025 JLINK_WriteReg(R10, 0x00000000)  returns 0x00 (0000ms, 0643ms total)
T0D48 001:025 JLINK_WriteReg(R11, 0x00000000)  returns 0x00 (0000ms, 0643ms total)
T0D48 001:025 JLINK_WriteReg(R12, 0x00000000)  returns 0x00 (0000ms, 0643ms total)
T0D48 001:025 JLINK_WriteReg(R13 (SP), 0x20001000)  returns 0x00 (0000ms, 0643ms total)
T0D48 001:025 JLINK_WriteReg(R14, 0x20000001)  returns 0x00 (0000ms, 0643ms total)
T0D48 001:025 JLINK_WriteReg(R15 (PC), 0x20000054)  returns 0x00 (0000ms, 0643ms total)
T0D48 001:025 JLINK_WriteReg(XPSR, 0x01000000)  returns 0x00 (0000ms, 0643ms total)
T0D48 001:025 JLINK_WriteReg(MSP, 0x20001000)  returns 0x00 (0000ms, 0643ms total)
T0D48 001:025 JLINK_WriteReg(PSP, 0x20001000)  returns 0x00 (0000ms, 0643ms total)
T0D48 001:025 JLINK_WriteReg(CFBP, 0x00000000)  returns 0x00 (0000ms, 0643ms total)
T0D48 001:025 JLINK_SetBPEx(Addr = 0x20000000, Type = 0xFFFFFFF2) -- CPU_ReadMem(4 bytes @ 0x20000000) -- CPU_WriteMem(4 bytes @ 0x20000000) -- CPU_ReadMem(4 bytes @ 0x20000000) -- CPU_WriteMem(4 bytes @ 0x20000000) -- CPU_ReadMem(2 bytes @ 0x20000000)  returns 0x00000001 (0005ms, 0648ms total)
T0D48 001:030 JLINK_Go() -- CPU_WriteMem(2 bytes @ 0x20000000) -- CPU_WriteMem(4 bytes @ 0xE0002008) -- CPU_WriteMem(4 bytes @ 0xE000200C) -- CPU_WriteMem(4 bytes @ 0xE0002010) -- CPU_WriteMem(4 bytes @ 0xE0002014) -- CPU_WriteMem(4 bytes @ 0xE0002018) -- CPU_WriteMem(4 bytes @ 0xE000201C) -- CPU_WriteMem(4 bytes @ 0xE0001004) (0007ms, 0655ms total)
T0D48 001:037 JLINK_IsHalted() -- CPU_ReadMem(2 bytes @ 0x20000000)  returns TRUE (0005ms, 0660ms total)
T0D48 001:042 JLINK_ReadReg(R15 (PC))  returns 0x20000000 (0000ms, 0655ms total)
T0D48 001:042 JLINK_ClrBPEx(BPHandle = 0x00000001)  returns 0x00 (0000ms, 0655ms total)
T0D48 001:042 JLINK_ReadReg(R0)  returns 0x00000000 (0000ms, 0655ms total)
T0D48 001:043 JLINK_WriteReg(R0, 0x08000000)  returns 0x00 (0000ms, 0655ms total)
T0D48 001:043 JLINK_WriteReg(R1, 0x00004000)  returns 0x00 (0000ms, 0655ms total)
T0D48 001:043 JLINK_WriteReg(R2, 0x000000FF)  returns 0x00 (0000ms, 0655ms total)
T0D48 001:043 JLINK_WriteReg(R3, 0x00000000)  returns 0x00 (0000ms, 0655ms total)
T0D48 001:043 JLINK_WriteReg(R4, 0x00000000)  returns 0x00 (0000ms, 0655ms total)
T0D48 001:043 JLINK_WriteReg(R5, 0x00000000)  returns 0x00 (0000ms, 0655ms total)
T0D48 001:043 JLINK_WriteReg(R6, 0x00000000)  returns 0x00 (0000ms, 0655ms total)
T0D48 001:043 JLINK_WriteReg(R7, 0x00000000)  returns 0x00 (0000ms, 0655ms total)
T0D48 001:043 JLINK_WriteReg(R8, 0x00000000)  returns 0x00 (0000ms, 0655ms total)
T0D48 001:043 JLINK_WriteReg(R9, 0x2000017C)  returns 0x00 (0000ms, 0655ms total)
T0D48 001:043 JLINK_WriteReg(R10, 0x00000000)  returns 0x00 (0000ms, 0655ms total)
T0D48 001:043 JLINK_WriteReg(R11, 0x00000000)  returns 0x00 (0000ms, 0655ms total)
T0D48 001:043 JLINK_WriteReg(R12, 0x00000000)  returns 0x00 (0000ms, 0655ms total)
T0D48 001:043 JLINK_WriteReg(R13 (SP), 0x20001000)  returns 0x00 (0000ms, 0655ms total)
T0D48 001:043 JLINK_WriteReg(R14, 0x20000001)  returns 0x00 (0000ms, 0655ms total)
T0D48 001:043 JLINK_WriteReg(R15 (PC), 0x20000020)  returns 0x00 (0000ms, 0655ms total)
T0D48 001:043 JLINK_WriteReg(XPSR, 0x01000000)  returns 0x00 (0000ms, 0655ms total)
T0D48 001:043 JLINK_WriteReg(MSP, 0x20001000)  returns 0x00 (0000ms, 0655ms total)
T0D48 001:043 JLINK_WriteReg(PSP, 0x20001000)  returns 0x00 (0000ms, 0655ms total)
T0D48 001:043 JLINK_WriteReg(CFBP, 0x00000000)  returns 0x00 (0000ms, 0655ms total)
T0D48 001:043 JLINK_SetBPEx(Addr = 0x20000000, Type = 0xFFFFFFF2)  returns 0x00000002 (0000ms, 0655ms total)
T0D48 001:043 JLINK_Go() (0002ms, 0657ms total)
T0D48 001:045 JLINK_IsHalted()  returns FALSE (0001ms, 0658ms total)
T0D48 001:087 JLINK_IsHalted() -- CPU_ReadMem(2 bytes @ 0x20000000)  returns TRUE (0004ms, 0661ms total)
T0D48 001:091 JLINK_ReadReg(R15 (PC))  returns 0x20000000 (0000ms, 0657ms total)
T0D48 001:091 JLINK_ClrBPEx(BPHandle = 0x00000002)  returns 0x00 (0000ms, 0657ms total)
T0D48 001:091 JLINK_ReadReg(R0)  returns 0x00000000 (0000ms, 0657ms total)
T0D48 001:092 JLINK_WriteReg(R0, 0x08004000)  returns 0x00 (0000ms, 0657ms total)
T0D48 001:092 JLINK_WriteReg(R1, 0x00004000)  returns 0x00 (0000ms, 0657ms total)
T0D48 001:092 JLINK_WriteReg(R2, 0x000000FF)  returns 0x00 (0000ms, 0657ms total)
T0D48 001:092 JLINK_WriteReg(R3, 0x00000000)  returns 0x00 (0000ms, 0657ms total)
T0D48 001:092 JLINK_WriteReg(R4, 0x00000000)  returns 0x00 (0000ms, 0657ms total)
T0D48 001:092 JLINK_WriteReg(R5, 0x00000000)  returns 0x00 (0000ms, 0657ms total)
T0D48 001:092 JLINK_WriteReg(R6, 0x00000000)  returns 0x00 (0000ms, 0657ms total)
T0D48 001:092 JLINK_WriteReg(R7, 0x00000000)  returns 0x00 (0000ms, 0657ms total)
T0D48 001:092 JLINK_WriteReg(R8, 0x00000000)  returns 0x00 (0000ms, 0657ms total)
T0D48 001:092 JLINK_WriteReg(R9, 0x2000017C)  returns 0x00 (0000ms, 0657ms total)
T0D48 001:092 JLINK_WriteReg(R10, 0x00000000)  returns 0x00 (0000ms, 0657ms total)
T0D48 001:092 JLINK_WriteReg(R11, 0x00000000)  returns 0x00 (0000ms, 0657ms total)
T0D48 001:092 JLINK_WriteReg(R12, 0x00000000)  returns 0x00 (0000ms, 0657ms total)
T0D48 001:092 JLINK_WriteReg(R13 (SP), 0x20001000)  returns 0x00 (0000ms, 0657ms total)
T0D48 001:092 JLINK_WriteReg(R14, 0x20000001)  returns 0x00 (0000ms, 0657ms total)
T0D48 001:092 JLINK_WriteReg(R15 (PC), 0x20000020)  returns 0x00 (0000ms, 0657ms total)
T0D48 001:092 JLINK_WriteReg(XPSR, 0x01000000)  returns 0x00 (0000ms, 0657ms total)
T0D48 001:092 JLINK_WriteReg(MSP, 0x20001000)  returns 0x00 (0000ms, 0657ms total)
T0D48 001:092 JLINK_WriteReg(PSP, 0x20001000)  returns 0x00 (0000ms, 0657ms total)
T0D48 001:092 JLINK_WriteReg(CFBP, 0x00000000)  returns 0x00 (0000ms, 0657ms total)
T0D48 001:092 JLINK_SetBPEx(Addr = 0x20000000, Type = 0xFFFFFFF2)  returns 0x00000003 (0000ms, 0657ms total)
T0D48 001:092 JLINK_Go() (0002ms, 0659ms total)
T0D48 001:094 JLINK_IsHalted()  returns FALSE (0000ms, 0659ms total)
T0D48 001:103 JLINK_IsHalted()  returns FALSE (0000ms, 0659ms total)
T0D48 001:105 JLINK_IsHalted()  returns FALSE (0000ms, 0659ms total)
T0D48 001:107 JLINK_IsHalted()  returns FALSE (0000ms, 0659ms total)
T0D48 001:109 JLINK_IsHalted() -- CPU_ReadMem(2 bytes @ 0x20000000)  returns TRUE (0004ms, 0663ms total)
T0D48 001:113 JLINK_ReadReg(R15 (PC))  returns 0x20000000 (0000ms, 0659ms total)
T0D48 001:113 JLINK_ClrBPEx(BPHandle = 0x00000003)  returns 0x00 (0000ms, 0659ms total)
T0D48 001:113 JLINK_ReadReg(R0)  returns 0x00000000 (0000ms, 0659ms total)
T0D48 001:114 JLINK_WriteReg(R0, 0x08008000)  returns 0x00 (0000ms, 0659ms total)
T0D48 001:114 JLINK_WriteReg(R1, 0x00004000)  returns 0x00 (0000ms, 0659ms total)
T0D48 001:114 JLINK_WriteReg(R2, 0x000000FF)  returns 0x00 (0000ms, 0659ms total)
T0D48 001:114 JLINK_WriteReg(R3, 0x00000000)  returns 0x00 (0000ms, 0659ms total)
T0D48 001:114 JLINK_WriteReg(R4, 0x00000000)  returns 0x00 (0000ms, 0659ms total)
T0D48 001:114 JLINK_WriteReg(R5, 0x00000000)  returns 0x00 (0000ms, 0659ms total)
T0D48 001:114 JLINK_WriteReg(R6, 0x00000000)  returns 0x00 (0000ms, 0659ms total)
T0D48 001:114 JLINK_WriteReg(R7, 0x00000000)  returns 0x00 (0000ms, 0659ms total)
T0D48 001:114 JLINK_WriteReg(R8, 0x00000000)  returns 0x00 (0000ms, 0659ms total)
T0D48 001:114 JLINK_WriteReg(R9, 0x2000017C)  returns 0x00 (0000ms, 0659ms total)
T0D48 001:114 JLINK_WriteReg(R10, 0x00000000)  returns 0x00 (0000ms, 0659ms total)
T0D48 001:114 JLINK_WriteReg(R11, 0x00000000)  returns 0x00 (0000ms, 0659ms total)
T0D48 001:114 JLINK_WriteReg(R12, 0x00000000)  returns 0x00 (0000ms, 0659ms total)
T0D48 001:114 JLINK_WriteReg(R13 (SP), 0x20001000)  returns 0x00 (0000ms, 0659ms total)
T0D48 001:114 JLINK_WriteReg(R14, 0x20000001)  returns 0x00 (0000ms, 0659ms total)
T0D48 001:114 JLINK_WriteReg(R15 (PC), 0x20000020)  returns 0x00 (0000ms, 0659ms total)
T0D48 001:114 JLINK_WriteReg(XPSR, 0x01000000)  returns 0x00 (0000ms, 0659ms total)
T0D48 001:114 JLINK_WriteReg(MSP, 0x20001000)  returns 0x00 (0000ms, 0659ms total)
T0D48 001:114 JLINK_WriteReg(PSP, 0x20001000)  returns 0x00 (0000ms, 0659ms total)
T0D48 001:114 JLINK_WriteReg(CFBP, 0x00000000)  returns 0x00 (0000ms, 0659ms total)
T0D48 001:114 JLINK_SetBPEx(Addr = 0x20000000, Type = 0xFFFFFFF2)  returns 0x00000004 (0000ms, 0659ms total)
T0D48 001:114 JLINK_Go() (0002ms, 0661ms total)
T0D48 001:116 JLINK_IsHalted()  returns FALSE (0000ms, 0661ms total)
T0D48 001:118 JLINK_IsHalted()  returns FALSE (0001ms, 0662ms total)
T0D48 001:121 JLINK_IsHalted()  returns FALSE (0000ms, 0661ms total)
T0D48 001:123 JLINK_IsHalted()  returns FALSE (0000ms, 0661ms total)
T0D48 001:125 JLINK_IsHalted()  returns FALSE (0000ms, 0661ms total)
T0D48 001:127 JLINK_IsHalted()  returns FALSE (0001ms, 0662ms total)
T0D48 001:130 JLINK_IsHalted()  returns FALSE (0000ms, 0661ms total)
T0D48 001:132 JLINK_IsHalted() -- CPU_ReadMem(2 bytes @ 0x20000000)  returns TRUE (0004ms, 0665ms total)
T0D48 001:136 JLINK_ReadReg(R15 (PC))  returns 0x20000000 (0000ms, 0661ms total)
T0D48 001:136 JLINK_ClrBPEx(BPHandle = 0x00000004)  returns 0x00 (0000ms, 0661ms total)
T0D48 001:136 JLINK_ReadReg(R0)  returns 0x00000000 (0000ms, 0661ms total)
T0D48 001:136 JLINK_WriteReg(R0, 0x0800C000)  returns 0x00 (0000ms, 0661ms total)
T0D48 001:136 JLINK_WriteReg(R1, 0x00004000)  returns 0x00 (0000ms, 0661ms total)
T0D48 001:136 JLINK_WriteReg(R2, 0x000000FF)  returns 0x00 (0000ms, 0661ms total)
T0D48 001:136 JLINK_WriteReg(R3, 0x00000000)  returns 0x00 (0000ms, 0661ms total)
T0D48 001:136 JLINK_WriteReg(R4, 0x00000000)  returns 0x00 (0000ms, 0661ms total)
T0D48 001:136 JLINK_WriteReg(R5, 0x00000000)  returns 0x00 (0000ms, 0661ms total)
T0D48 001:136 JLINK_WriteReg(R6, 0x00000000)  returns 0x00 (0000ms, 0661ms total)
T0D48 001:136 JLINK_WriteReg(R7, 0x00000000)  returns 0x00 (0000ms, 0661ms total)
T0D48 001:136 JLINK_WriteReg(R8, 0x00000000)  returns 0x00 (0000ms, 0661ms total)
T0D48 001:136 JLINK_WriteReg(R9, 0x2000017C)  returns 0x00 (0000ms, 0661ms total)
T0D48 001:136 JLINK_WriteReg(R10, 0x00000000)  returns 0x00 (0000ms, 0661ms total)
T0D48 001:136 JLINK_WriteReg(R11, 0x00000000)  returns 0x00 (0000ms, 0661ms total)
T0D48 001:136 JLINK_WriteReg(R12, 0x00000000)  returns 0x00 (0000ms, 0661ms total)
T0D48 001:136 JLINK_WriteReg(R13 (SP), 0x20001000)  returns 0x00 (0000ms, 0661ms total)
T0D48 001:136 JLINK_WriteReg(R14, 0x20000001)  returns 0x00 (0000ms, 0661ms total)
T0D48 001:136 JLINK_WriteReg(R15 (PC), 0x20000020)  returns 0x00 (0000ms, 0661ms total)
T0D48 001:136 JLINK_WriteReg(XPSR, 0x01000000)  returns 0x00 (0000ms, 0661ms total)
T0D48 001:136 JLINK_WriteReg(MSP, 0x20001000)  returns 0x00 (0000ms, 0661ms total)
T0D48 001:136 JLINK_WriteReg(PSP, 0x20001000)  returns 0x00 (0000ms, 0661ms total)
T0D48 001:136 JLINK_WriteReg(CFBP, 0x00000000)  returns 0x00 (0000ms, 0661ms total)
T0D48 001:136 JLINK_SetBPEx(Addr = 0x20000000, Type = 0xFFFFFFF2)  returns 0x00000005 (0000ms, 0661ms total)
T0D48 001:136 JLINK_Go() (0002ms, 0663ms total)
T0D48 001:138 JLINK_IsHalted()  returns FALSE (0001ms, 0664ms total)
T0D48 001:140 JLINK_IsHalted()  returns FALSE (0000ms, 0663ms total)
T0D48 001:142 JLINK_IsHalted()  returns FALSE (0000ms, 0663ms total)
T0D48 001:144 JLINK_IsHalted()  returns FALSE (0000ms, 0663ms total)
T0D48 001:146 JLINK_IsHalted()  returns FALSE (0000ms, 0663ms total)
T0D48 001:148 JLINK_IsHalted()  returns FALSE (0000ms, 0663ms total)
T0D48 001:150 JLINK_IsHalted()  returns FALSE (0000ms, 0663ms total)
T0D48 001:152 JLINK_IsHalted()  returns FALSE (0000ms, 0663ms total)
T0D48 001:154 JLINK_IsHalted() -- CPU_ReadMem(2 bytes @ 0x20000000)  returns TRUE (0005ms, 0668ms total)
T0D48 001:159 JLINK_ReadReg(R15 (PC))  returns 0x20000000 (0000ms, 0663ms total)
T0D48 001:159 JLINK_ClrBPEx(BPHandle = 0x00000005)  returns 0x00 (0000ms, 0663ms total)
T0D48 001:159 JLINK_ReadReg(R0)  returns 0x00000000 (0000ms, 0663ms total)
T0D48 001:159 JLINK_WriteReg(R0, 0x08010000)  returns 0x00 (0000ms, 0663ms total)
T0D48 001:159 JLINK_WriteReg(R1, 0x00010000)  returns 0x00 (0000ms, 0663ms total)
T0D48 001:159 JLINK_WriteReg(R2, 0x000000FF)  returns 0x00 (0000ms, 0663ms total)
T0D48 001:159 JLINK_WriteReg(R3, 0x00000000)  returns 0x00 (0000ms, 0663ms total)
T0D48 001:159 JLINK_WriteReg(R4, 0x00000000)  returns 0x00 (0000ms, 0663ms total)
T0D48 001:159 JLINK_WriteReg(R5, 0x00000000)  returns 0x00 (0000ms, 0663ms total)
T0D48 001:159 JLINK_WriteReg(R6, 0x00000000)  returns 0x00 (0000ms, 0663ms total)
T0D48 001:159 JLINK_WriteReg(R7, 0x00000000)  returns 0x00 (0000ms, 0663ms total)
T0D48 001:159 JLINK_WriteReg(R8, 0x00000000)  returns 0x00 (0000ms, 0663ms total)
T0D48 001:159 JLINK_WriteReg(R9, 0x2000017C)  returns 0x00 (0000ms, 0663ms total)
T0D48 001:159 JLINK_WriteReg(R10, 0x00000000)  returns 0x00 (0000ms, 0663ms total)
T0D48 001:159 JLINK_WriteReg(R11, 0x00000000)  returns 0x00 (0000ms, 0663ms total)
T0D48 001:160 JLINK_WriteReg(R12, 0x00000000)  returns 0x00 (0000ms, 0664ms total)
T0D48 001:160 JLINK_WriteReg(R13 (SP), 0x20001000)  returns 0x00 (0000ms, 0664ms total)
T0D48 001:160 JLINK_WriteReg(R14, 0x20000001)  returns 0x00 (0000ms, 0664ms total)
T0D48 001:160 JLINK_WriteReg(R15 (PC), 0x20000020)  returns 0x00 (0000ms, 0664ms total)
T0D48 001:160 JLINK_WriteReg(XPSR, 0x01000000)  returns 0x00 (0000ms, 0664ms total)
T0D48 001:160 JLINK_WriteReg(MSP, 0x20001000)  returns 0x00 (0000ms, 0664ms total)
T0D48 001:160 JLINK_WriteReg(PSP, 0x20001000)  returns 0x00 (0000ms, 0664ms total)
T0D48 001:160 JLINK_WriteReg(CFBP, 0x00000000)  returns 0x00 (0000ms, 0664ms total)
T0D48 001:160 JLINK_SetBPEx(Addr = 0x20000000, Type = 0xFFFFFFF2)  returns 0x00000006 (0000ms, 0664ms total)
T0D48 001:160 JLINK_Go() (0001ms, 0665ms total)
T0D48 001:161 JLINK_IsHalted()  returns FALSE (0001ms, 0666ms total)
T0D48 001:163 JLINK_IsHalted()  returns FALSE (0000ms, 0665ms total)
T0D48 001:165 JLINK_IsHalted()  returns FALSE (0000ms, 0665ms total)
T0D48 001:167 JLINK_IsHalted()  returns FALSE (0000ms, 0665ms total)
T0D48 001:170 JLINK_IsHalted()  returns FALSE (0000ms, 0665ms total)
T0D48 001:172 JLINK_IsHalted()  returns FALSE (0001ms, 0666ms total)
T0D48 001:174 JLINK_IsHalted()  returns FALSE (0000ms, 0665ms total)
T0D48 001:176 JLINK_IsHalted()  returns FALSE (0000ms, 0665ms total)
T0D48 001:178 JLINK_IsHalted()  returns FALSE (0000ms, 0665ms total)
T0D48 001:180 JLINK_IsHalted()  returns FALSE (0001ms, 0666ms total)
T0D48 001:182 JLINK_IsHalted()  returns FALSE (0000ms, 0665ms total)
T0D48 001:184 JLINK_IsHalted()  returns FALSE (0000ms, 0665ms total)
T0D48 001:188 JLINK_IsHalted()  returns FALSE (0000ms, 0665ms total)
T0D48 001:189 JLINK_IsHalted()  returns FALSE (0000ms, 0665ms total)
T0D48 001:191 JLINK_IsHalted()  returns FALSE (0000ms, 0665ms total)
T0D48 001:193 JLINK_IsHalted()  returns FALSE (0001ms, 0666ms total)
T0D48 001:195 JLINK_IsHalted()  returns FALSE (0000ms, 0665ms total)
T0D48 001:197 JLINK_IsHalted()  returns FALSE (0000ms, 0665ms total)
T0D48 001:199 JLINK_IsHalted()  returns FALSE (0000ms, 0665ms total)
T0D48 001:202 JLINK_IsHalted()  returns FALSE (0000ms, 0665ms total)
T0D48 001:204 JLINK_IsHalted()  returns FALSE (0000ms, 0665ms total)
T0D48 001:206 JLINK_IsHalted()  returns FALSE (0001ms, 0666ms total)
T0D48 001:209 JLINK_IsHalted()  returns FALSE (0000ms, 0665ms total)
T0D48 001:211 JLINK_IsHalted()  returns FALSE (0001ms, 0666ms total)
T0D48 001:213 JLINK_IsHalted()  returns FALSE (0000ms, 0665ms total)
T0D48 001:215 JLINK_IsHalted()  returns FALSE (0000ms, 0665ms total)
T0D48 001:217 JLINK_IsHalted()  returns FALSE (0000ms, 0665ms total)
T0D48 001:219 JLINK_IsHalted() -- CPU_ReadMem(2 bytes @ 0x20000000)  returns TRUE (0004ms, 0669ms total)
T0D48 001:223 JLINK_ReadReg(R15 (PC))  returns 0x20000000 (0000ms, 0665ms total)
T0D48 001:223 JLINK_ClrBPEx(BPHandle = 0x00000006)  returns 0x00 (0000ms, 0665ms total)
T0D48 001:223 JLINK_ReadReg(R0)  returns 0x00000000 (0000ms, 0665ms total)
T0D48 001:224 JLINK_WriteReg(R0, 0x00000001)  returns 0x00 (0000ms, 0665ms total)
T0D48 001:224 JLINK_WriteReg(R1, 0x00010000)  returns 0x00 (0000ms, 0665ms total)
T0D48 001:224 JLINK_WriteReg(R2, 0x000000FF)  returns 0x00 (0000ms, 0665ms total)
T0D48 001:224 JLINK_WriteReg(R3, 0x00000000)  returns 0x00 (0000ms, 0665ms total)
T0D48 001:224 JLINK_WriteReg(R4, 0x00000000)  returns 0x00 (0000ms, 0665ms total)
T0D48 001:224 JLINK_WriteReg(R5, 0x00000000)  returns 0x00 (0000ms, 0665ms total)
T0D48 001:224 JLINK_WriteReg(R6, 0x00000000)  returns 0x00 (0000ms, 0665ms total)
T0D48 001:224 JLINK_WriteReg(R7, 0x00000000)  returns 0x00 (0000ms, 0665ms total)
T0D48 001:224 JLINK_WriteReg(R8, 0x00000000)  returns 0x00 (0000ms, 0665ms total)
T0D48 001:224 JLINK_WriteReg(R9, 0x2000017C)  returns 0x00 (0000ms, 0665ms total)
T0D48 001:224 JLINK_WriteReg(R10, 0x00000000)  returns 0x00 (0000ms, 0665ms total)
T0D48 001:224 JLINK_WriteReg(R11, 0x00000000)  returns 0x00 (0000ms, 0665ms total)
T0D48 001:224 JLINK_WriteReg(R12, 0x00000000)  returns 0x00 (0000ms, 0665ms total)
T0D48 001:224 JLINK_WriteReg(R13 (SP), 0x20001000)  returns 0x00 (0000ms, 0665ms total)
T0D48 001:224 JLINK_WriteReg(R14, 0x20000001)  returns 0x00 (0000ms, 0665ms total)
T0D48 001:224 JLINK_WriteReg(R15 (PC), 0x20000082)  returns 0x00 (0000ms, 0665ms total)
T0D48 001:224 JLINK_WriteReg(XPSR, 0x01000000)  returns 0x00 (0000ms, 0665ms total)
T0D48 001:224 JLINK_WriteReg(MSP, 0x20001000)  returns 0x00 (0000ms, 0665ms total)
T0D48 001:224 JLINK_WriteReg(PSP, 0x20001000)  returns 0x00 (0000ms, 0665ms total)
T0D48 001:224 JLINK_WriteReg(CFBP, 0x00000000)  returns 0x00 (0000ms, 0665ms total)
T0D48 001:224 JLINK_SetBPEx(Addr = 0x20000000, Type = 0xFFFFFFF2)  returns 0x00000007 (0000ms, 0665ms total)
T0D48 001:224 JLINK_Go() (0002ms, 0667ms total)
T0D48 001:226 JLINK_IsHalted() -- CPU_ReadMem(2 bytes @ 0x20000000)  returns TRUE (0005ms, 0672ms total)
T0D48 001:231 JLINK_ReadReg(R15 (PC))  returns 0x20000000 (0000ms, 0667ms total)
T0D48 001:231 JLINK_ClrBPEx(BPHandle = 0x00000007)  returns 0x00 (0000ms, 0667ms total)
T0D48 001:231 JLINK_ReadReg(R0)  returns 0x00000000 (0000ms, 0667ms total)
T0D48 001:286 JLINK_WriteMem(0x20000000, 0x0180 Bytes, ...) - Data: 00 BE 0A E0 0D 78 2D 06 68 40 08 24 40 00 00 D3 ... -- CPU_WriteMem(384 bytes @ 0x20000000)  returns 0x180 (0003ms, 0670ms total)
T0D48 001:289 JLINK_WriteReg(R0, 0x08000000)  returns 0x00 (0000ms, 0670ms total)
T0D48 001:289 JLINK_WriteReg(R1, 0x007A1200)  returns 0x00 (0000ms, 0670ms total)
T0D48 001:289 JLINK_WriteReg(R2, 0x00000002)  returns 0x00 (0000ms, 0670ms total)
T0D48 001:289 JLINK_WriteReg(R3, 0x00000000)  returns 0x00 (0000ms, 0670ms total)
T0D48 001:289 JLINK_WriteReg(R4, 0x00000000)  returns 0x00 (0000ms, 0670ms total)
T0D48 001:289 JLINK_WriteReg(R5, 0x00000000)  returns 0x00 (0000ms, 0670ms total)
T0D48 001:289 JLINK_WriteReg(R6, 0x00000000)  returns 0x00 (0000ms, 0670ms total)
T0D48 001:289 JLINK_WriteReg(R7, 0x00000000)  returns 0x00 (0000ms, 0670ms total)
T0D48 001:289 JLINK_WriteReg(R8, 0x00000000)  returns 0x00 (0000ms, 0670ms total)
T0D48 001:289 JLINK_WriteReg(R9, 0x2000017C)  returns 0x00 (0000ms, 0670ms total)
T0D48 001:289 JLINK_WriteReg(R10, 0x00000000)  returns 0x00 (0000ms, 0670ms total)
T0D48 001:289 JLINK_WriteReg(R11, 0x00000000)  returns 0x00 (0000ms, 0670ms total)
T0D48 001:289 JLINK_WriteReg(R12, 0x00000000)  returns 0x00 (0000ms, 0670ms total)
T0D48 001:289 JLINK_WriteReg(R13 (SP), 0x20001000)  returns 0x00 (0000ms, 0670ms total)
T0D48 001:289 JLINK_WriteReg(R14, 0x20000001)  returns 0x00 (0000ms, 0670ms total)
T0D48 001:289 JLINK_WriteReg(R15 (PC), 0x20000054)  returns 0x00 (0000ms, 0670ms total)
T0D48 001:289 JLINK_WriteReg(XPSR, 0x01000000)  returns 0x00 (0000ms, 0670ms total)
T0D48 001:289 JLINK_WriteReg(MSP, 0x20001000)  returns 0x00 (0000ms, 0670ms total)
T0D48 001:289 JLINK_WriteReg(PSP, 0x20001000)  returns 0x00 (0000ms, 0670ms total)
T0D48 001:289 JLINK_WriteReg(CFBP, 0x00000000)  returns 0x00 (0000ms, 0670ms total)
T0D48 001:289 JLINK_SetBPEx(Addr = 0x20000000, Type = 0xFFFFFFF2) -- CPU_ReadMem(4 bytes @ 0x20000000) -- CPU_WriteMem(4 bytes @ 0x20000000) -- CPU_ReadMem(4 bytes @ 0x20000000) -- CPU_WriteMem(4 bytes @ 0x20000000) -- CPU_ReadMem(2 bytes @ 0x20000000)  returns 0x00000008 (0004ms, 0674ms total)
T0D48 001:293 JLINK_Go() -- CPU_WriteMem(2 bytes @ 0x20000000) (0002ms, 0676ms total)
T0D48 001:295 JLINK_IsHalted() -- CPU_ReadMem(2 bytes @ 0x20000000)  returns TRUE (0005ms, 0681ms total)
T0D48 001:300 JLINK_ReadReg(R15 (PC))  returns 0x20000000 (0000ms, 0676ms total)
T0D48 001:300 JLINK_ClrBPEx(BPHandle = 0x00000008)  returns 0x00 (0000ms, 0676ms total)
T0D48 001:300 JLINK_ReadReg(R0)  returns 0x00000000 (0000ms, 0676ms total)
T0D48 001:300 JLINK_WriteMem(0x20000180, 0x0400 Bytes, ...) - Data: 00 34 00 20 91 02 00 08 83 2F 00 08 B3 03 00 08 ... -- CPU_WriteMem(1024 bytes @ 0x20000180)  returns 0x400 (0008ms, 0684ms total)
T0D48 001:308 JLINK_WriteReg(R0, 0x08000000)  returns 0x00 (0000ms, 0684ms total)
T0D48 001:308 JLINK_WriteReg(R1, 0x00000400)  returns 0x00 (0000ms, 0684ms total)
T0D48 001:308 JLINK_WriteReg(R2, 0x20000180)  returns 0x00 (0000ms, 0684ms total)
T0D48 001:308 JLINK_WriteReg(R3, 0x00000000)  returns 0x00 (0000ms, 0684ms total)
T0D48 001:308 JLINK_WriteReg(R4, 0x00000000)  returns 0x00 (0000ms, 0684ms total)
T0D48 001:308 JLINK_WriteReg(R5, 0x00000000)  returns 0x00 (0000ms, 0684ms total)
T0D48 001:308 JLINK_WriteReg(R6, 0x00000000)  returns 0x00 (0000ms, 0684ms total)
T0D48 001:308 JLINK_WriteReg(R7, 0x00000000)  returns 0x00 (0000ms, 0684ms total)
T0D48 001:308 JLINK_WriteReg(R8, 0x00000000)  returns 0x00 (0000ms, 0684ms total)
T0D48 001:308 JLINK_WriteReg(R9, 0x2000017C)  returns 0x00 (0000ms, 0684ms total)
T0D48 001:308 JLINK_WriteReg(R10, 0x00000000)  returns 0x00 (0000ms, 0684ms total)
T0D48 001:308 JLINK_WriteReg(R11, 0x00000000)  returns 0x00 (0000ms, 0684ms total)
T0D48 001:308 JLINK_WriteReg(R12, 0x00000000)  returns 0x00 (0000ms, 0684ms total)
T0D48 001:308 JLINK_WriteReg(R13 (SP), 0x20001000)  returns 0x00 (0000ms, 0684ms total)
T0D48 001:308 JLINK_WriteReg(R14, 0x20000001)  returns 0x00 (0000ms, 0684ms total)
T0D48 001:308 JLINK_WriteReg(R15 (PC), 0x20000108)  returns 0x00 (0000ms, 0684ms total)
T0D48 001:308 JLINK_WriteReg(XPSR, 0x01000000)  returns 0x00 (0000ms, 0684ms total)
T0D48 001:308 JLINK_WriteReg(MSP, 0x20001000)  returns 0x00 (0000ms, 0684ms total)
T0D48 001:308 JLINK_WriteReg(PSP, 0x20001000)  returns 0x00 (0000ms, 0684ms total)
T0D48 001:308 JLINK_WriteReg(CFBP, 0x00000000)  returns 0x00 (0000ms, 0684ms total)
T0D48 001:308 JLINK_SetBPEx(Addr = 0x20000000, Type = 0xFFFFFFF2)  returns 0x00000009 (0000ms, 0684ms total)
T0D48 001:308 JLINK_Go() (0003ms, 0687ms total)
T0D48 001:311 JLINK_IsHalted()  returns FALSE (0000ms, 0687ms total)
T0D48 001:314 JLINK_IsHalted()  returns FALSE (0001ms, 0688ms total)
T0D48 001:316 JLINK_IsHalted() -- CPU_ReadMem(2 bytes @ 0x20000000)  returns TRUE (0005ms, 0692ms total)
T0D48 001:321 JLINK_ReadReg(R15 (PC))  returns 0x20000000 (0000ms, 0687ms total)
T0D48 001:321 JLINK_ClrBPEx(BPHandle = 0x00000009)  returns 0x00 (0000ms, 0687ms total)
T0D48 001:321 JLINK_ReadReg(R0)  returns 0x00000000 (0000ms, 0687ms total)
T0D48 001:321 JLINK_WriteMem(0x20000180, 0x0400 Bytes, ...) - Data: 5E 40 12 BF 16 43 B2 FA 82 F5 02 FA 05 F4 C5 F1 ... -- CPU_WriteMem(1024 bytes @ 0x20000180)  returns 0x400 (0008ms, 0695ms total)
T0D48 001:329 JLINK_WriteReg(R0, 0x08000400)  returns 0x00 (0000ms, 0695ms total)
T0D48 001:329 JLINK_WriteReg(R1, 0x00000400)  returns 0x00 (0000ms, 0695ms total)
T0D48 001:329 JLINK_WriteReg(R2, 0x20000180)  returns 0x00 (0000ms, 0695ms total)
T0D48 001:329 JLINK_WriteReg(R3, 0x00000000)  returns 0x00 (0000ms, 0695ms total)
T0D48 001:329 JLINK_WriteReg(R4, 0x00000000)  returns 0x00 (0000ms, 0695ms total)
T0D48 001:329 JLINK_WriteReg(R5, 0x00000000)  returns 0x00 (0000ms, 0695ms total)
T0D48 001:329 JLINK_WriteReg(R6, 0x00000000)  returns 0x00 (0000ms, 0695ms total)
T0D48 001:329 JLINK_WriteReg(R7, 0x00000000)  returns 0x00 (0000ms, 0695ms total)
T0D48 001:329 JLINK_WriteReg(R8, 0x00000000)  returns 0x00 (0000ms, 0695ms total)
T0D48 001:329 JLINK_WriteReg(R9, 0x2000017C)  returns 0x00 (0000ms, 0695ms total)
T0D48 001:329 JLINK_WriteReg(R10, 0x00000000)  returns 0x00 (0000ms, 0695ms total)
T0D48 001:329 JLINK_WriteReg(R11, 0x00000000)  returns 0x00 (0000ms, 0695ms total)
T0D48 001:329 JLINK_WriteReg(R12, 0x00000000)  returns 0x00 (0000ms, 0695ms total)
T0D48 001:329 JLINK_WriteReg(R13 (SP), 0x20001000)  returns 0x00 (0000ms, 0695ms total)
T0D48 001:329 JLINK_WriteReg(R14, 0x20000001)  returns 0x00 (0000ms, 0695ms total)
T0D48 001:329 JLINK_WriteReg(R15 (PC), 0x20000108)  returns 0x00 (0000ms, 0695ms total)
T0D48 001:329 JLINK_WriteReg(XPSR, 0x01000000)  returns 0x00 (0000ms, 0695ms total)
T0D48 001:329 JLINK_WriteReg(MSP, 0x20001000)  returns 0x00 (0000ms, 0695ms total)
T0D48 001:329 JLINK_WriteReg(PSP, 0x20001000)  returns 0x00 (0000ms, 0695ms total)
T0D48 001:329 JLINK_WriteReg(CFBP, 0x00000000)  returns 0x00 (0000ms, 0695ms total)
T0D48 001:329 JLINK_SetBPEx(Addr = 0x20000000, Type = 0xFFFFFFF2)  returns 0x0000000A (0000ms, 0695ms total)
T0D48 001:329 JLINK_Go() (0002ms, 0697ms total)
T0D48 001:331 JLINK_IsHalted()  returns FALSE (0000ms, 0697ms total)
T0D48 001:333 JLINK_IsHalted()  returns FALSE (0000ms, 0697ms total)
T0D48 001:335 JLINK_IsHalted() -- CPU_ReadMem(2 bytes @ 0x20000000)  returns TRUE (0005ms, 0702ms total)
T0D48 001:340 JLINK_ReadReg(R15 (PC))  returns 0x20000000 (0000ms, 0697ms total)
T0D48 001:340 JLINK_ClrBPEx(BPHandle = 0x0000000A)  returns 0x00 (0000ms, 0697ms total)
T0D48 001:340 JLINK_ReadReg(R0)  returns 0x00000000 (0000ms, 0697ms total)
T0D48 001:340 JLINK_WriteMem(0x20000180, 0x0400 Bytes, ...) - Data: 03 D0 C0 1E 10 BD C0 1A 10 BD 0A 04 01 D0 80 1E ... -- CPU_WriteMem(1024 bytes @ 0x20000180)  returns 0x400 (0008ms, 0705ms total)
T0D48 001:348 JLINK_WriteReg(R0, 0x08000800)  returns 0x00 (0000ms, 0705ms total)
T0D48 001:348 JLINK_WriteReg(R1, 0x00000400)  returns 0x00 (0000ms, 0705ms total)
T0D48 001:348 JLINK_WriteReg(R2, 0x20000180)  returns 0x00 (0000ms, 0705ms total)
T0D48 001:348 JLINK_WriteReg(R3, 0x00000000)  returns 0x00 (0000ms, 0705ms total)
T0D48 001:348 JLINK_WriteReg(R4, 0x00000000)  returns 0x00 (0000ms, 0705ms total)
T0D48 001:348 JLINK_WriteReg(R5, 0x00000000)  returns 0x00 (0000ms, 0705ms total)
T0D48 001:348 JLINK_WriteReg(R6, 0x00000000)  returns 0x00 (0000ms, 0705ms total)
T0D48 001:348 JLINK_WriteReg(R7, 0x00000000)  returns 0x00 (0000ms, 0705ms total)
T0D48 001:348 JLINK_WriteReg(R8, 0x00000000)  returns 0x00 (0000ms, 0705ms total)
T0D48 001:348 JLINK_WriteReg(R9, 0x2000017C)  returns 0x00 (0000ms, 0705ms total)
T0D48 001:348 JLINK_WriteReg(R10, 0x00000000)  returns 0x00 (0000ms, 0705ms total)
T0D48 001:348 JLINK_WriteReg(R11, 0x00000000)  returns 0x00 (0000ms, 0705ms total)
T0D48 001:348 JLINK_WriteReg(R12, 0x00000000)  returns 0x00 (0000ms, 0705ms total)
T0D48 001:348 JLINK_WriteReg(R13 (SP), 0x20001000)  returns 0x00 (0000ms, 0705ms total)
T0D48 001:348 JLINK_WriteReg(R14, 0x20000001)  returns 0x00 (0000ms, 0705ms total)
T0D48 001:348 JLINK_WriteReg(R15 (PC), 0x20000108)  returns 0x00 (0000ms, 0705ms total)
T0D48 001:348 JLINK_WriteReg(XPSR, 0x01000000)  returns 0x00 (0000ms, 0705ms total)
T0D48 001:348 JLINK_WriteReg(MSP, 0x20001000)  returns 0x00 (0000ms, 0705ms total)
T0D48 001:348 JLINK_WriteReg(PSP, 0x20001000)  returns 0x00 (0000ms, 0705ms total)
T0D48 001:348 JLINK_WriteReg(CFBP, 0x00000000)  returns 0x00 (0000ms, 0705ms total)
T0D48 001:348 JLINK_SetBPEx(Addr = 0x20000000, Type = 0xFFFFFFF2)  returns 0x0000000B (0000ms, 0705ms total)
T0D48 001:348 JLINK_Go() (0002ms, 0707ms total)
T0D48 001:350 JLINK_IsHalted()  returns FALSE (0001ms, 0708ms total)
T0D48 001:353 JLINK_IsHalted()  returns FALSE (0000ms, 0707ms total)
T0D48 001:355 JLINK_IsHalted() -- CPU_ReadMem(2 bytes @ 0x20000000)  returns TRUE (0005ms, 0712ms total)
T0D48 001:360 JLINK_ReadReg(R15 (PC))  returns 0x20000000 (0000ms, 0707ms total)
T0D48 001:360 JLINK_ClrBPEx(BPHandle = 0x0000000B)  returns 0x00 (0000ms, 0707ms total)
T0D48 001:360 JLINK_ReadReg(R0)  returns 0x00000000 (0000ms, 0707ms total)
T0D48 001:360 JLINK_WriteMem(0x20000180, 0x0400 Bytes, ...) - Data: 81 07 02 D0 02 21 CD E9 00 16 A0 F1 46 01 8B 29 ... -- CPU_WriteMem(1024 bytes @ 0x20000180)  returns 0x400 (0008ms, 0715ms total)
T0D48 001:368 JLINK_WriteReg(R0, 0x08000C00)  returns 0x00 (0000ms, 0715ms total)
T0D48 001:368 JLINK_WriteReg(R1, 0x00000400)  returns 0x00 (0000ms, 0715ms total)
T0D48 001:368 JLINK_WriteReg(R2, 0x20000180)  returns 0x00 (0000ms, 0715ms total)
T0D48 001:368 JLINK_WriteReg(R3, 0x00000000)  returns 0x00 (0000ms, 0715ms total)
T0D48 001:368 JLINK_WriteReg(R4, 0x00000000)  returns 0x00 (0000ms, 0715ms total)
T0D48 001:368 JLINK_WriteReg(R5, 0x00000000)  returns 0x00 (0000ms, 0715ms total)
T0D48 001:368 JLINK_WriteReg(R6, 0x00000000)  returns 0x00 (0000ms, 0715ms total)
T0D48 001:368 JLINK_WriteReg(R7, 0x00000000)  returns 0x00 (0000ms, 0715ms total)
T0D48 001:368 JLINK_WriteReg(R8, 0x00000000)  returns 0x00 (0000ms, 0715ms total)
T0D48 001:368 JLINK_WriteReg(R9, 0x2000017C)  returns 0x00 (0000ms, 0715ms total)
T0D48 001:368 JLINK_WriteReg(R10, 0x00000000)  returns 0x00 (0000ms, 0715ms total)
T0D48 001:368 JLINK_WriteReg(R11, 0x00000000)  returns 0x00 (0000ms, 0715ms total)
T0D48 001:368 JLINK_WriteReg(R12, 0x00000000)  returns 0x00 (0000ms, 0715ms total)
T0D48 001:368 JLINK_WriteReg(R13 (SP), 0x20001000)  returns 0x00 (0000ms, 0715ms total)
T0D48 001:368 JLINK_WriteReg(R14, 0x20000001)  returns 0x00 (0000ms, 0715ms total)
T0D48 001:368 JLINK_WriteReg(R15 (PC), 0x20000108)  returns 0x00 (0000ms, 0715ms total)
T0D48 001:368 JLINK_WriteReg(XPSR, 0x01000000)  returns 0x00 (0000ms, 0715ms total)
T0D48 001:368 JLINK_WriteReg(MSP, 0x20001000)  returns 0x00 (0000ms, 0715ms total)
T0D48 001:368 JLINK_WriteReg(PSP, 0x20001000)  returns 0x00 (0000ms, 0715ms total)
T0D48 001:368 JLINK_WriteReg(CFBP, 0x00000000)  returns 0x00 (0000ms, 0715ms total)
T0D48 001:368 JLINK_SetBPEx(Addr = 0x20000000, Type = 0xFFFFFFF2)  returns 0x0000000C (0000ms, 0715ms total)
T0D48 001:368 JLINK_Go() (0003ms, 0718ms total)
T0D48 001:371 JLINK_IsHalted()  returns FALSE (0001ms, 0719ms total)
T0D48 001:373 JLINK_IsHalted()  returns FALSE (0000ms, 0718ms total)
T0D48 001:374 JLINK_IsHalted()  returns FALSE (0000ms, 0718ms total)
T0D48 001:376 JLINK_IsHalted() -- CPU_ReadMem(2 bytes @ 0x20000000)  returns TRUE (0005ms, 0723ms total)
T0D48 001:381 JLINK_ReadReg(R15 (PC))  returns 0x20000000 (0000ms, 0718ms total)
T0D48 001:381 JLINK_ClrBPEx(BPHandle = 0x0000000C)  returns 0x00 (0000ms, 0718ms total)
T0D48 001:381 JLINK_ReadReg(R0)  returns 0x00000000 (0000ms, 0718ms total)
T0D48 001:381 JLINK_WriteMem(0x20000180, 0x0400 Bytes, ...) - Data: 23 F4 40 73 0C 4C 23 60 23 46 1B 68 13 43 23 60 ... -- CPU_WriteMem(1024 bytes @ 0x20000180)  returns 0x400 (0008ms, 0726ms total)
T0D48 001:389 JLINK_WriteReg(R0, 0x08001000)  returns 0x00 (0000ms, 0726ms total)
T0D48 001:389 JLINK_WriteReg(R1, 0x00000400)  returns 0x00 (0000ms, 0726ms total)
T0D48 001:389 JLINK_WriteReg(R2, 0x20000180)  returns 0x00 (0000ms, 0726ms total)
T0D48 001:389 JLINK_WriteReg(R3, 0x00000000)  returns 0x00 (0000ms, 0726ms total)
T0D48 001:389 JLINK_WriteReg(R4, 0x00000000)  returns 0x00 (0000ms, 0726ms total)
T0D48 001:389 JLINK_WriteReg(R5, 0x00000000)  returns 0x00 (0000ms, 0726ms total)
T0D48 001:389 JLINK_WriteReg(R6, 0x00000000)  returns 0x00 (0000ms, 0726ms total)
T0D48 001:389 JLINK_WriteReg(R7, 0x00000000)  returns 0x00 (0000ms, 0726ms total)
T0D48 001:389 JLINK_WriteReg(R8, 0x00000000)  returns 0x00 (0000ms, 0726ms total)
T0D48 001:389 JLINK_WriteReg(R9, 0x2000017C)  returns 0x00 (0000ms, 0726ms total)
T0D48 001:389 JLINK_WriteReg(R10, 0x00000000)  returns 0x00 (0000ms, 0726ms total)
T0D48 001:389 JLINK_WriteReg(R11, 0x00000000)  returns 0x00 (0000ms, 0726ms total)
T0D48 001:389 JLINK_WriteReg(R12, 0x00000000)  returns 0x00 (0000ms, 0726ms total)
T0D48 001:389 JLINK_WriteReg(R13 (SP), 0x20001000)  returns 0x00 (0000ms, 0726ms total)
T0D48 001:389 JLINK_WriteReg(R14, 0x20000001)  returns 0x00 (0000ms, 0726ms total)
T0D48 001:389 JLINK_WriteReg(R15 (PC), 0x20000108)  returns 0x00 (0000ms, 0726ms total)
T0D48 001:389 JLINK_WriteReg(XPSR, 0x01000000)  returns 0x00 (0000ms, 0726ms total)
T0D48 001:389 JLINK_WriteReg(MSP, 0x20001000)  returns 0x00 (0000ms, 0726ms total)
T0D48 001:389 JLINK_WriteReg(PSP, 0x20001000)  returns 0x00 (0000ms, 0726ms total)
T0D48 001:389 JLINK_WriteReg(CFBP, 0x00000000)  returns 0x00 (0000ms, 0726ms total)
T0D48 001:389 JLINK_SetBPEx(Addr = 0x20000000, Type = 0xFFFFFFF2)  returns 0x0000000D (0000ms, 0726ms total)
T0D48 001:389 JLINK_Go() (0003ms, 0729ms total)
T0D48 001:392 JLINK_IsHalted()  returns FALSE (0001ms, 0730ms total)
T0D48 001:394 JLINK_IsHalted()  returns FALSE (0000ms, 0729ms total)
T0D48 001:396 JLINK_IsHalted()  returns FALSE (0000ms, 0729ms total)
T0D48 001:398 JLINK_IsHalted() -- CPU_ReadMem(2 bytes @ 0x20000000)  returns TRUE (0004ms, 0733ms total)
T0D48 001:402 JLINK_ReadReg(R15 (PC))  returns 0x20000000 (0000ms, 0729ms total)
T0D48 001:402 JLINK_ClrBPEx(BPHandle = 0x0000000D)  returns 0x00 (0000ms, 0729ms total)
T0D48 001:402 JLINK_ReadReg(R0)  returns 0x00000000 (0000ms, 0729ms total)
T0D48 001:402 JLINK_WriteMem(0x20000180, 0x0400 Bytes, ...) - Data: 01 F0 00 41 01 B1 01 20 70 47 00 00 10 3C 02 40 ... -- CPU_WriteMem(1024 bytes @ 0x20000180)  returns 0x400 (0008ms, 0737ms total)
T0D48 001:410 JLINK_WriteReg(R0, 0x08001400)  returns 0x00 (0000ms, 0737ms total)
T0D48 001:410 JLINK_WriteReg(R1, 0x00000400)  returns 0x00 (0000ms, 0737ms total)
T0D48 001:410 JLINK_WriteReg(R2, 0x20000180)  returns 0x00 (0000ms, 0737ms total)
T0D48 001:410 JLINK_WriteReg(R3, 0x00000000)  returns 0x00 (0000ms, 0737ms total)
T0D48 001:410 JLINK_WriteReg(R4, 0x00000000)  returns 0x00 (0000ms, 0737ms total)
T0D48 001:410 JLINK_WriteReg(R5, 0x00000000)  returns 0x00 (0000ms, 0737ms total)
T0D48 001:410 JLINK_WriteReg(R6, 0x00000000)  returns 0x00 (0000ms, 0737ms total)
T0D48 001:410 JLINK_WriteReg(R7, 0x00000000)  returns 0x00 (0000ms, 0737ms total)
T0D48 001:410 JLINK_WriteReg(R8, 0x00000000)  returns 0x00 (0000ms, 0737ms total)
T0D48 001:410 JLINK_WriteReg(R9, 0x2000017C)  returns 0x00 (0000ms, 0737ms total)
T0D48 001:410 JLINK_WriteReg(R10, 0x00000000)  returns 0x00 (0000ms, 0737ms total)
T0D48 001:410 JLINK_WriteReg(R11, 0x00000000)  returns 0x00 (0000ms, 0737ms total)
T0D48 001:410 JLINK_WriteReg(R12, 0x00000000)  returns 0x00 (0000ms, 0737ms total)
T0D48 001:410 JLINK_WriteReg(R13 (SP), 0x20001000)  returns 0x00 (0000ms, 0737ms total)
T0D48 001:410 JLINK_WriteReg(R14, 0x20000001)  returns 0x00 (0000ms, 0737ms total)
T0D48 001:410 JLINK_WriteReg(R15 (PC), 0x20000108)  returns 0x00 (0000ms, 0737ms total)
T0D48 001:410 JLINK_WriteReg(XPSR, 0x01000000)  returns 0x00 (0000ms, 0737ms total)
T0D48 001:410 JLINK_WriteReg(MSP, 0x20001000)  returns 0x00 (0000ms, 0737ms total)
T0D48 001:410 JLINK_WriteReg(PSP, 0x20001000)  returns 0x00 (0000ms, 0737ms total)
T0D48 001:410 JLINK_WriteReg(CFBP, 0x00000000)  returns 0x00 (0000ms, 0737ms total)
T0D48 001:410 JLINK_SetBPEx(Addr = 0x20000000, Type = 0xFFFFFFF2)  returns 0x0000000E (0000ms, 0737ms total)
T0D48 001:410 JLINK_Go() (0002ms, 0739ms total)
T0D48 001:412 JLINK_IsHalted()  returns FALSE (0001ms, 0740ms total)
T0D48 001:416 JLINK_IsHalted()  returns FALSE (0001ms, 0740ms total)
T0D48 001:419 JLINK_IsHalted() -- CPU_ReadMem(2 bytes @ 0x20000000)  returns TRUE (0004ms, 0743ms total)
T0D48 001:423 JLINK_ReadReg(R15 (PC))  returns 0x20000000 (0000ms, 0739ms total)
T0D48 001:423 JLINK_ClrBPEx(BPHandle = 0x0000000E)  returns 0x00 (0000ms, 0739ms total)
T0D48 001:423 JLINK_ReadReg(R0)  returns 0x00000000 (0000ms, 0739ms total)
T0D48 001:424 JLINK_WriteMem(0x20000180, 0x0400 Bytes, ...) - Data: 00 BF 70 47 0C ED 00 E0 00 00 FA 05 02 46 10 68 ... -- CPU_WriteMem(1024 bytes @ 0x20000180)  returns 0x400 (0007ms, 0746ms total)
T0D48 001:431 JLINK_WriteReg(R0, 0x08001800)  returns 0x00 (0000ms, 0746ms total)
T0D48 001:431 JLINK_WriteReg(R1, 0x00000400)  returns 0x00 (0001ms, 0747ms total)
T0D48 001:432 JLINK_WriteReg(R2, 0x20000180)  returns 0x00 (0000ms, 0747ms total)
T0D48 001:432 JLINK_WriteReg(R3, 0x00000000)  returns 0x00 (0000ms, 0747ms total)
T0D48 001:432 JLINK_WriteReg(R4, 0x00000000)  returns 0x00 (0000ms, 0747ms total)
T0D48 001:432 JLINK_WriteReg(R5, 0x00000000)  returns 0x00 (0000ms, 0747ms total)
T0D48 001:432 JLINK_WriteReg(R6, 0x00000000)  returns 0x00 (0000ms, 0747ms total)
T0D48 001:432 JLINK_WriteReg(R7, 0x00000000)  returns 0x00 (0000ms, 0747ms total)
T0D48 001:432 JLINK_WriteReg(R8, 0x00000000)  returns 0x00 (0000ms, 0747ms total)
T0D48 001:432 JLINK_WriteReg(R9, 0x2000017C)  returns 0x00 (0000ms, 0747ms total)
T0D48 001:432 JLINK_WriteReg(R10, 0x00000000)  returns 0x00 (0000ms, 0747ms total)
T0D48 001:432 JLINK_WriteReg(R11, 0x00000000)  returns 0x00 (0000ms, 0747ms total)
T0D48 001:432 JLINK_WriteReg(R12, 0x00000000)  returns 0x00 (0000ms, 0747ms total)
T0D48 001:432 JLINK_WriteReg(R13 (SP), 0x20001000)  returns 0x00 (0000ms, 0747ms total)
T0D48 001:432 JLINK_WriteReg(R14, 0x20000001)  returns 0x00 (0000ms, 0747ms total)
T0D48 001:432 JLINK_WriteReg(R15 (PC), 0x20000108)  returns 0x00 (0000ms, 0747ms total)
T0D48 001:432 JLINK_WriteReg(XPSR, 0x01000000)  returns 0x00 (0000ms, 0747ms total)
T0D48 001:432 JLINK_WriteReg(MSP, 0x20001000)  returns 0x00 (0000ms, 0747ms total)
T0D48 001:432 JLINK_WriteReg(PSP, 0x20001000)  returns 0x00 (0000ms, 0747ms total)
T0D48 001:432 JLINK_WriteReg(CFBP, 0x00000000)  returns 0x00 (0000ms, 0747ms total)
T0D48 001:432 JLINK_SetBPEx(Addr = 0x20000000, Type = 0xFFFFFFF2)  returns 0x0000000F (0000ms, 0747ms total)
T0D48 001:432 JLINK_Go() (0002ms, 0749ms total)
T0D48 001:434 JLINK_IsHalted()  returns FALSE (0001ms, 0750ms total)
T0D48 001:438 JLINK_IsHalted()  returns FALSE (0001ms, 0750ms total)
T0D48 001:440 JLINK_IsHalted() -- CPU_ReadMem(2 bytes @ 0x20000000)  returns TRUE (0004ms, 0753ms total)
T0D48 001:444 JLINK_ReadReg(R15 (PC))  returns 0x20000000 (0000ms, 0749ms total)
T0D48 001:444 JLINK_ClrBPEx(BPHandle = 0x0000000F)  returns 0x00 (0000ms, 0749ms total)
T0D48 001:444 JLINK_ReadReg(R0)  returns 0x00000000 (0000ms, 0749ms total)
T0D48 001:445 JLINK_WriteMem(0x20000180, 0x0400 Bytes, ...) - Data: 45 10 81 60 20 69 01 28 2B D1 C5 EB C5 01 04 F5 ... -- CPU_WriteMem(1024 bytes @ 0x20000180)  returns 0x400 (0007ms, 0756ms total)
T0D48 001:452 JLINK_WriteReg(R0, 0x08001C00)  returns 0x00 (0000ms, 0756ms total)
T0D48 001:452 JLINK_WriteReg(R1, 0x00000400)  returns 0x00 (0001ms, 0757ms total)
T0D48 001:453 JLINK_WriteReg(R2, 0x20000180)  returns 0x00 (0000ms, 0757ms total)
T0D48 001:453 JLINK_WriteReg(R3, 0x00000000)  returns 0x00 (0000ms, 0757ms total)
T0D48 001:453 JLINK_WriteReg(R4, 0x00000000)  returns 0x00 (0000ms, 0757ms total)
T0D48 001:453 JLINK_WriteReg(R5, 0x00000000)  returns 0x00 (0000ms, 0757ms total)
T0D48 001:453 JLINK_WriteReg(R6, 0x00000000)  returns 0x00 (0000ms, 0757ms total)
T0D48 001:453 JLINK_WriteReg(R7, 0x00000000)  returns 0x00 (0000ms, 0757ms total)
T0D48 001:453 JLINK_WriteReg(R8, 0x00000000)  returns 0x00 (0000ms, 0757ms total)
T0D48 001:453 JLINK_WriteReg(R9, 0x2000017C)  returns 0x00 (0000ms, 0757ms total)
T0D48 001:453 JLINK_WriteReg(R10, 0x00000000)  returns 0x00 (0000ms, 0757ms total)
T0D48 001:453 JLINK_WriteReg(R11, 0x00000000)  returns 0x00 (0000ms, 0757ms total)
T0D48 001:453 JLINK_WriteReg(R12, 0x00000000)  returns 0x00 (0000ms, 0757ms total)
T0D48 001:453 JLINK_WriteReg(R13 (SP), 0x20001000)  returns 0x00 (0000ms, 0757ms total)
T0D48 001:453 JLINK_WriteReg(R14, 0x20000001)  returns 0x00 (0000ms, 0757ms total)
T0D48 001:453 JLINK_WriteReg(R15 (PC), 0x20000108)  returns 0x00 (0000ms, 0757ms total)
T0D48 001:453 JLINK_WriteReg(XPSR, 0x01000000)  returns 0x00 (0000ms, 0757ms total)
T0D48 001:453 JLINK_WriteReg(MSP, 0x20001000)  returns 0x00 (0000ms, 0757ms total)
T0D48 001:453 JLINK_WriteReg(PSP, 0x20001000)  returns 0x00 (0000ms, 0757ms total)
T0D48 001:453 JLINK_WriteReg(CFBP, 0x00000000)  returns 0x00 (0000ms, 0757ms total)
T0D48 001:453 JLINK_SetBPEx(Addr = 0x20000000, Type = 0xFFFFFFF2)  returns 0x00000010 (0000ms, 0757ms total)
T0D48 001:453 JLINK_Go() (0003ms, 0760ms total)
T0D48 001:456 JLINK_IsHalted()  returns FALSE (0000ms, 0760ms total)
T0D48 001:458 JLINK_IsHalted()  returns FALSE (0000ms, 0760ms total)
T0D48 001:461 JLINK_IsHalted() -- CPU_ReadMem(2 bytes @ 0x20000000)  returns TRUE (0004ms, 0764ms total)
T0D48 001:465 JLINK_ReadReg(R15 (PC))  returns 0x20000000 (0000ms, 0760ms total)
T0D48 001:465 JLINK_ClrBPEx(BPHandle = 0x00000010)  returns 0x00 (0000ms, 0760ms total)
T0D48 001:465 JLINK_ReadReg(R0)  returns 0x00000000 (0000ms, 0760ms total)
T0D48 001:465 JLINK_WriteMem(0x20000180, 0x0400 Bytes, ...) - Data: C8 60 3A E0 7C 48 87 42 0A D3 7C 48 87 42 07 D2 ... -- CPU_WriteMem(1024 bytes @ 0x20000180)  returns 0x400 (0008ms, 0768ms total)
T0D48 001:473 JLINK_WriteReg(R0, 0x08002000)  returns 0x00 (0000ms, 0768ms total)
T0D48 001:473 JLINK_WriteReg(R1, 0x00000400)  returns 0x00 (0000ms, 0768ms total)
T0D48 001:473 JLINK_WriteReg(R2, 0x20000180)  returns 0x00 (0000ms, 0768ms total)
T0D48 001:473 JLINK_WriteReg(R3, 0x00000000)  returns 0x00 (0000ms, 0768ms total)
T0D48 001:473 JLINK_WriteReg(R4, 0x00000000)  returns 0x00 (0000ms, 0768ms total)
T0D48 001:473 JLINK_WriteReg(R5, 0x00000000)  returns 0x00 (0000ms, 0768ms total)
T0D48 001:473 JLINK_WriteReg(R6, 0x00000000)  returns 0x00 (0000ms, 0768ms total)
T0D48 001:473 JLINK_WriteReg(R7, 0x00000000)  returns 0x00 (0000ms, 0768ms total)
T0D48 001:473 JLINK_WriteReg(R8, 0x00000000)  returns 0x00 (0000ms, 0768ms total)
T0D48 001:473 JLINK_WriteReg(R9, 0x2000017C)  returns 0x00 (0000ms, 0768ms total)
